Element, Terminal, P(kW), Q(kvar),  P_Normal, Q_Normal, P_Emergency, Q_Emergency
"Line.HVMV_SUB_CONNECTOR",   1,     11918.9,       487.7,      3263.5,       133.5,         0.0,         0.0
"Line.HVMV_SUB_CONNECTOR",   2,    -11918.9,      -487.7
"Line.LN5502549-1"      ,   1,        13.8,         3.7,         0.0,         0.0,         0.0,         0.0
"Line.LN5502549-1"      ,   2,       -13.8,        -3.7
"Line.LN6259988-1"      ,   1,        10.3,         2.7,         0.0,         0.0,         0.0,         0.0
"Line.LN6259988-1"      ,   2,       -10.3,        -2.8
"Line.LN6077796-1"      ,   1,        11.8,         3.2,         0.0,         0.0,         0.0,         0.0
"Line.LN6077796-1"      ,   2,       -11.8,        -3.2
"Line.LN5835135-2"      ,   1,       114.8,        30.3,         0.0,         0.0,         0.0,         0.0
"Line.LN5835135-2"      ,   2,      -114.8,       -30.3
"Line.LN5896826-1"      ,   1,         5.9,         1.6,         0.0,         0.0,         0.0,         0.0
"Line.LN5896826-1"      ,   2,        -5.9,        -1.6
"Line.LN5714038-1"      ,   1,        15.8,         4.1,         0.0,         0.0,         0.0,         0.0
"Line.LN5714038-1"      ,   2,       -15.8,        -4.1
"Line.LN5653457-1"      ,   1,       552.7,       146.8,         0.0,         0.0,         0.0,         0.0
"Line.LN5653457-1"      ,   2,      -552.4,      -146.7
"Line.LN5835173-1"      ,   1,       989.3,       265.7,         0.0,         0.0,         0.0,         0.0
"Line.LN5835173-1"      ,   2,      -989.1,      -265.6
"Line.LN6321415-1"      ,   1,         9.9,         2.6,         0.0,         0.0,         0.0,         0.0
"Line.LN6321415-1"      ,   2,        -9.9,        -2.6
"Line.LN5565092-1"      ,   1,        15.5,         4.1,         0.0,         0.0,         0.0,         0.0
"Line.LN5565092-1"      ,   2,       -15.5,        -4.1
"Line.LN6073648-1"      ,   1,        21.6,         5.7,         0.0,         0.0,         0.0,         0.0
"Line.LN6073648-1"      ,   2,       -21.6,        -5.7
"Line.LN5774457-1"      ,   1,       545.1,       144.3,         0.0,         0.0,         0.0,         0.0
"Line.LN5774457-1"      ,   2,      -545.0,      -144.3
"Line.LN5534966-3"      ,   1,        78.4,        20.9,         0.0,         0.0,         0.0,         0.0
"Line.LN5534966-3"      ,   2,       -78.4,       -20.9
"Line.LN5859996-1"      ,   1,        19.8,         5.3,         0.0,         0.0,         0.0,         0.0
"Line.LN5859996-1"      ,   2,       -19.8,        -5.3
"Line.LN6138610-2"      ,   1,      2247.6,       607.0,         0.0,         0.0,         0.0,         0.0
"Line.LN6138610-2"      ,   2,     -2246.2,      -606.6
"Line.LN6258435-3"      ,   1,        18.0,         4.8,         0.0,         0.0,         0.0,         0.0
"Line.LN6258435-3"      ,   2,       -18.0,        -4.8
"Line.LN5804790-1"      ,   1,        10.3,         2.7,         0.0,         0.0,         0.0,         0.0
"Line.LN5804790-1"      ,   2,       -10.3,        -2.8
"Line.LN6900591-14"     ,   1,        32.5,         8.7,         0.0,         0.0,         0.0,         0.0
"Line.LN6900591-14"     ,   2,       -32.5,        -8.7
"Line.LN6409873-1"      ,   1,        76.2,        19.8,         0.0,         0.0,         0.0,         0.0
"Line.LN6409873-1"      ,   2,       -76.2,       -19.8
"Line.LN6014135-1"      ,   1,        67.6,        18.0,         0.0,         0.0,         0.0,         0.0
"Line.LN6014135-1"      ,   2,       -67.6,       -18.0
"Line.LN6077784-1"      ,   1,      1208.3,       322.5,         0.0,         0.0,         0.0,         0.0
"Line.LN6077784-1"      ,   2,     -1208.0,      -322.3
"Line.LN5744338-1"      ,   1,       185.7,        49.5,         0.0,         0.0,         0.0,         0.0
"Line.LN5744338-1"      ,   2,      -185.6,       -49.4
"Line.LN6991381-4"      ,   1,        36.1,         9.6,         0.0,         0.0,         0.0,         0.0
"Line.LN6991381-4"      ,   2,       -36.1,        -9.6
"Line.LN5774480-1"      ,   1,       224.2,        59.8,         0.0,         0.0,         0.0,         0.0
"Line.LN5774480-1"      ,   2,      -224.0,       -59.6
"Line.LN5986938-3"      ,   1,        37.9,        10.0,         0.0,         0.0,         0.0,         0.0
"Line.LN5986938-3"      ,   2,       -37.9,       -10.0
"Line.LN5894230-1"      ,   1,        10.3,         2.7,         0.0,         0.0,         0.0,         0.0
"Line.LN5894230-1"      ,   2,       -10.3,        -2.8
"Line.LN5683858-3"      ,   1,        68.6,        18.3,         0.0,         0.0,         0.0,         0.0
"Line.LN5683858-3"      ,   2,       -68.6,       -18.3
"Line.LN5920279-5"      ,   1,      6309.7,       774.9,         0.0,         0.0,         0.0,         0.0
"Line.LN5920279-5"      ,   2,     -6308.7,      -772.5
"Line.LN6439600-1"      ,   1,         9.0,         2.4,         0.0,         0.0,         0.0,         0.0
"Line.LN6439600-1"      ,   2,        -9.0,        -2.4
"Line.LN5589097-1"      ,   1,        13.5,         3.6,         0.0,         0.0,         0.0,         0.0
"Line.LN5589097-1"      ,   2,       -13.5,        -3.6
"Line.LN5651975-1"      ,   1,       781.1,       207.5,         0.0,         0.0,         0.0,         0.0
"Line.LN5651975-1"      ,   2,      -780.8,      -207.4
"Line.LN5865236-1"      ,   1,        18.0,         4.8,         0.0,         0.0,         0.0,         0.0
"Line.LN5865236-1"      ,   2,       -18.0,        -4.8
"Line.LN5593232-1"      ,   1,        10.3,         2.7,         0.0,         0.0,         0.0,         0.0
"Line.LN5593232-1"      ,   2,       -10.3,        -2.8
"Line.LN5740283-1"      ,   1,        12.4,         3.3,         0.0,         0.0,         0.0,         0.0
"Line.LN5740283-1"      ,   2,       -12.4,        -3.3
"Line.LN6106559-1"      ,   1,        27.6,         7.3,         0.0,         0.0,         0.0,         0.0
"Line.LN6106559-1"      ,   2,       -27.6,        -7.4
"Line.LN5714056-3"      ,   1,       622.8,       164.8,         0.0,         0.0,         0.0,         0.0
"Line.LN5714056-3"      ,   2,      -622.1,      -164.6
"Line.LN5985355-3"      ,   1,       393.3,       105.1,         0.0,         0.0,         0.0,         0.0
"Line.LN5985355-3"      ,   2,      -392.9,      -105.0
"Line.LN5531956-1"      ,   1,         9.0,         2.4,         0.0,         0.0,         0.0,         0.0
"Line.LN5531956-1"      ,   2,        -9.0,        -2.4
"Line.LN5650048-1"      ,   1,         9.9,         2.6,         0.0,         0.0,         0.0,         0.0
"Line.LN5650048-1"      ,   2,        -9.9,        -2.6
"Line.LN6290203-1"      ,   1,       816.8,       218.4,         0.0,         0.0,         0.0,         0.0
"Line.LN6290203-1"      ,   2,      -816.6,      -218.2
"Line.LN6134414-1"      ,   1,        20.7,         5.5,         0.0,         0.0,         0.0,         0.0
"Line.LN6134414-1"      ,   2,       -20.7,        -5.5
"Line.LN6259998-2"      ,   1,        12.4,         3.3,         0.0,         0.0,         0.0,         0.0
"Line.LN6259998-2"      ,   2,       -12.4,        -3.3
"Line.LN6078767-1"      ,   1,      2823.2,      -158.0,         0.0,         0.0,         0.0,         0.0
"Line.LN6078767-1"      ,   2,     -2822.9,       158.5
"Line.LN6017300-1"      ,   1,         6.2,         1.6,         0.0,         0.0,         0.0,         0.0
"Line.LN6017300-1"      ,   2,        -6.2,        -1.7
"Line.LN8979257-2"      ,   1,        29.2,         7.6,         0.0,         0.0,         0.0,         0.0
"Line.LN8979257-2"      ,   2,       -29.2,        -7.7
"Line.LN81048109-1"     ,   1,        30.0,         7.8,         0.0,         0.0,         0.0,         0.0
"Line.LN81048109-1"     ,   2,       -30.0,        -7.9
"Line.293471"           ,   1,        29.2,         7.8,         0.0,         0.0,         0.0,         0.0
"Line.293471"           ,   2,       -29.2,        -7.8
"Line.LN5534965-2"      ,   1,         9.0,         2.4,         0.0,         0.0,         0.0,         0.0
"Line.LN5534965-2"      ,   2,        -9.0,        -2.4
"Line.LN5655683-1"      ,   1,       141.9,        37.7,         0.0,         0.0,         0.0,         0.0
"Line.LN5655683-1"      ,   2,      -141.9,       -37.7
"Line.LN5686247-1"      ,   1,        13.8,         3.7,         0.0,         0.0,         0.0,         0.0
"Line.LN5686247-1"      ,   2,       -13.8,        -3.7
"Line.LN6048642-1"      ,   1,         0.0,        -0.0,         0.0,         0.0,         0.0,         0.0
"Line.LN6048642-1"      ,   2,         0.0,        -0.0
"Line.LN5928544-3"      ,   1,       103.5,        27.5,         0.0,         0.0,         0.0,         0.0
"Line.LN5928544-3"      ,   2,      -103.5,       -27.5
"Line.LN6108172-1"      ,   1,        18.0,         4.8,         0.0,         0.0,         0.0,         0.0
"Line.LN6108172-1"      ,   2,       -18.0,        -4.8
"Line.LN5532754-1"      ,   1,       704.8,       186.9,         0.0,         0.0,         0.0,         0.0
"Line.LN5532754-1"      ,   2,      -704.7,      -186.8
"Line.LN5591834-1"      ,   1,        26.8,         7.1,         0.0,         0.0,         0.0,         0.0
"Line.LN5591834-1"      ,   2,       -26.8,        -7.1
"Line.LN6347196-2"      ,   1,       450.0,       118.9,         0.0,         0.0,         0.0,         0.0
"Line.LN6347196-2"      ,   2,      -449.9,      -118.9
"Line.LN5532741-1"      ,   1,        63.1,        16.7,         0.0,         0.0,         0.0,         0.0
"Line.LN5532741-1"      ,   2,       -63.1,       -16.7
"Line.LN5804803-1"      ,   1,         5.4,         1.4,         0.0,         0.0,         0.0,         0.0
"Line.LN5804803-1"      ,   2,        -5.4,        -1.4
"Line.LN6169248-1"      ,   1,      1650.9,       446.1,         0.0,         0.0,         0.0,         0.0
"Line.LN6169248-1"      ,   2,     -1649.9,      -445.2
"Line.LN5532786-2"      ,   1,        15.8,         4.2,         0.0,         0.0,         0.0,         0.0
"Line.LN5532786-2"      ,   2,       -15.8,        -4.2
"Line.LN5744339-1"      ,   1,       114.5,        30.5,         0.0,         0.0,         0.0,         0.0
"Line.LN5744339-1"      ,   2,      -114.5,       -30.5
"Line.LN5531255-3"      ,   1,       118.1,        31.4,         0.0,         0.0,         0.0,         0.0
"Line.LN5531255-3"      ,   2,      -118.1,       -31.4
"Line.LN5926308-2"      ,   1,       763.5,       203.7,         0.0,         0.0,         0.0,         0.0
"Line.LN5926308-2"      ,   2,      -763.3,      -203.6
"Line.LN5683856-3"      ,   1,         9.0,         2.4,         0.0,         0.0,         0.0,         0.0
"Line.LN5683856-3"      ,   2,        -9.0,        -2.4
"Line.LN6171502-1"      ,   1,        14.4,         3.8,         0.0,         0.0,         0.0,         0.0
"Line.LN6171502-1"      ,   2,       -14.4,        -3.8
"Line.LN5593228-1"      ,   1,         9.9,         2.6,         0.0,         0.0,         0.0,         0.0
"Line.LN5593228-1"      ,   2,        -9.9,        -2.6
"Line.LN6380800-1"      ,   1,         9.9,         2.6,         0.0,         0.0,         0.0,         0.0
"Line.LN6380800-1"      ,   2,        -9.9,        -2.6
"Line.LN6199525-2"      ,   1,         3.6,         1.0,         0.0,         0.0,         0.0,         0.0
"Line.LN6199525-2"      ,   2,        -3.6,        -1.0
"Line.LN5772710-2"      ,   1,        72.0,        19.2,         0.0,         0.0,         0.0,         0.0
"Line.LN5772710-2"      ,   2,       -72.0,       -19.2
"Line.LN8961760-1"      ,   1,        36.3,         9.5,         0.0,         0.0,         0.0,         0.0
"Line.LN8961760-1"      ,   2,       -36.3,        -9.5
"Line.LN6047556-1"      ,   1,        10.3,         2.7,         0.0,         0.0,         0.0,         0.0
"Line.LN6047556-1"      ,   2,       -10.3,        -2.8
"Line.LN6138603-1"      ,   1,        15.8,         4.2,         0.0,         0.0,         0.0,         0.0
"Line.LN6138603-1"      ,   2,       -15.8,        -4.2
"Line.LN6108139-1"      ,   1,         5.9,         1.6,         0.0,         0.0,         0.0,         0.0
"Line.LN6108139-1"      ,   2,        -5.9,        -1.6
"Line.LN6388581-2"      ,   1,         5.4,         1.4,         0.0,         0.0,         0.0,         0.0
"Line.LN6388581-2"      ,   2,        -5.4,        -1.4
"Line.LN5774460-1"      ,   1,         5.4,         1.4,         0.0,         0.0,         0.0,         0.0
"Line.LN5774460-1"      ,   2,        -5.4,        -1.4
"Line.LN5624387-1"      ,   1,        15.5,         4.1,         0.0,         0.0,         0.0,         0.0
"Line.LN5624387-1"      ,   2,       -15.5,        -4.1
"Line.LN6137087-1"      ,   1,        82.7,        22.0,         0.0,         0.0,         0.0,         0.0
"Line.LN6137087-1"      ,   2,       -82.7,       -22.0
"Line.LN6077809-1"      ,   1,       103.4,        27.5,         0.0,         0.0,         0.0,         0.0
"Line.LN6077809-1"      ,   2,      -103.4,       -27.5
"Line.LN6440079-1"      ,   1,        26.8,         7.1,         0.0,         0.0,         0.0,         0.0
"Line.LN6440079-1"      ,   2,       -26.8,        -7.1
"Line.LN5804794-1"      ,   1,        82.0,        21.9,         0.0,         0.0,         0.0,         0.0
"Line.LN5804794-1"      ,   2,       -82.0,       -21.9
"Line.LN5654484-1"      ,   1,        10.3,         2.8,         0.0,         0.0,         0.0,         0.0
"Line.LN5654484-1"      ,   2,       -10.3,        -2.8
"Line.LN5774465-1"      ,   1,        18.1,         4.7,         0.0,         0.0,         0.0,         0.0
"Line.LN5774465-1"      ,   2,       -18.1,        -4.7
"Line.LN5473349-1"      ,   1,      6022.7,       629.2,         0.0,         0.0,         0.0,         0.0
"Line.LN5473349-1"      ,   2,     -6021.8,      -627.1
"Line.LN6169253-1"      ,   1,         9.0,         2.4,         0.0,         0.0,         0.0,         0.0
"Line.LN6169253-1"      ,   2,        -9.0,        -2.4
"Line.LN6350536-1"      ,   1,         5.4,         1.4,         0.0,         0.0,         0.0,         0.0
"Line.LN6350536-1"      ,   2,        -5.4,        -1.4
"Line.LN6048523-1"      ,   1,       149.0,        39.6,         0.0,         0.0,         0.0,         0.0
"Line.LN6048523-1"      ,   2,      -148.9,       -39.5
"Line.LN5594152-1"      ,   1,       166.3,        44.3,         0.0,         0.0,         0.0,         0.0
"Line.LN5594152-1"      ,   2,      -166.2,       -44.2
"Line.LN5865248-1"      ,   1,       829.1,       221.2,         0.0,         0.0,         0.0,         0.0
"Line.LN5865248-1"      ,   2,      -828.8,      -221.1
"Line.LN6046143-1"      ,   1,         3.9,         1.0,         0.0,         0.0,         0.0,         0.0
"Line.LN6046143-1"      ,   2,        -3.9,        -1.1
"Line.LN5803287-1"      ,   1,        20.8,         5.5,         0.0,         0.0,         0.0,         0.0
"Line.LN5803287-1"      ,   2,       -20.8,        -5.5
"Line.LN5589094-1"      ,   1,       230.0,        61.6,         0.0,         0.0,         0.0,         0.0
"Line.LN5589094-1"      ,   2,      -229.8,       -61.6
"Line.LN5954983-1"      ,   1,       118.1,        31.4,         0.0,         0.0,         0.0,         0.0
"Line.LN5954983-1"      ,   2,      -118.0,       -31.4
"Line.LN5924696-2"      ,   1,         5.4,         1.4,         0.0,         0.0,         0.0,         0.0
"Line.LN5924696-2"      ,   2,        -5.4,        -1.4
"Line.LN6506311-4"      ,   1,         6.2,         1.6,         0.0,         0.0,         0.0,         0.0
"Line.LN6506311-4"      ,   2,        -6.2,        -1.6
"Line.LN5653493-1"      ,   1,       117.7,        31.3,         0.0,         0.0,         0.0,         0.0
"Line.LN5653493-1"      ,   2,      -117.7,       -31.3
"Line.LN5684836-1"      ,   1,      6117.9,       670.6,         0.0,         0.0,         0.0,         0.0
"Line.LN5684836-1"      ,   2,     -6115.1,      -663.8
"Line.LN5715016-3"      ,   1,         5.4,         1.4,         0.0,         0.0,         0.0,         0.0
"Line.LN5715016-3"      ,   2,        -5.4,        -1.4
"Line.LN6138614-1"      ,   1,       880.9,      -698.8,         0.0,         0.0,         0.0,         0.0
"Line.LN6138614-1"      ,   2,      -880.0,       699.1
"Line.LN6077781-2"      ,   1,      5017.4,      1376.3,         0.0,         0.0,         0.0,         0.0
"Line.LN6077781-2"      ,   2,     -5007.7,     -1367.1
"Line.LN5675121-1"      ,   1,         4.1,         1.1,         0.0,         0.0,         0.0,         0.0
"Line.LN5675121-1"      ,   2,        -4.1,        -1.1
"Line.LN5773046-1"      ,   1,       244.2,        65.1,         0.0,         0.0,         0.0,         0.0
"Line.LN5773046-1"      ,   2,      -244.1,       -65.1
"Line.LN6380809-2"      ,   1,       729.8,       196.1,         0.0,         0.0,         0.0,         0.0
"Line.LN6380809-2"      ,   2,      -729.7,      -196.1
"Line.LN6018326-1"      ,   1,        12.4,         3.3,         0.0,         0.0,         0.0,         0.0
"Line.LN6018326-1"      ,   2,       -12.4,        -3.3
"Line.LN5472356-1"      ,   1,         3.9,         1.0,         0.0,         0.0,         0.0,         0.0
"Line.LN5472356-1"      ,   2,        -3.9,        -1.1
"Line.LN6139641-1"      ,   1,      7433.0,      1306.8,         0.0,         0.0,         0.0,         0.0
"Line.LN6139641-1"      ,   2,     -7430.7,     -1301.3
"Line.LN6018341-1"      ,   1,      2654.3,      -215.9,         0.0,         0.0,         0.0,         0.0
"Line.LN6018341-1"      ,   2,     -2653.5,       217.5
"Line.LN6017302-1"      ,   1,       290.9,        77.7,         0.0,         0.0,         0.0,         0.0
"Line.LN6017302-1"      ,   2,      -290.8,       -77.7
"Line.LN6199505-1"      ,   1,         3.9,         1.0,         0.0,         0.0,         0.0,         0.0
"Line.LN6199505-1"      ,   2,        -3.9,        -1.1
"Line.LN5682327-1"      ,   1,       136.1,        36.3,         0.0,         0.0,         0.0,         0.0
"Line.LN5682327-1"      ,   2,      -136.1,       -36.3
"Line.LN6290243-1"      ,   1,        19.9,         5.3,         0.0,         0.0,         0.0,         0.0
"Line.LN6290243-1"      ,   2,       -19.9,        -5.3
"Line.X8223_48332_SW"   ,   1,      1384.3,      -562.7,         0.0,         0.0,         0.0,         0.0
"Line.X8223_48332_SW"   ,   2,     -1384.3,       562.7
"Line.LN6413567-3"      ,   1,      1384.6,      -562.6,         0.0,         0.0,         0.0,         0.0
"Line.LN6413567-3"      ,   2,     -1384.3,       562.7
"Line.LN5591731-3"      ,   1,      6355.2,       804.4,         0.0,         0.0,         0.0,         0.0
"Line.LN5591731-3"      ,   2,     -6355.2,      -804.2
"Line.LN5653470-1"      ,   1,        29.2,         7.8,         0.0,         0.0,         0.0,         0.0
"Line.LN5653470-1"      ,   2,       -29.2,        -7.8
"Line.LN6017316-1"      ,   1,       243.1,        64.8,         0.0,         0.0,         0.0,         0.0
"Line.LN6017316-1"      ,   2,      -242.8,       -64.7
"Line.LN5926299-1"      ,   1,        19.8,         5.3,         0.0,         0.0,         0.0,         0.0
"Line.LN5926299-1"      ,   2,       -19.8,        -5.3
"Line.LN5683831-1"      ,   1,       861.0,       229.7,         0.0,         0.0,         0.0,         0.0
"Line.LN5683831-1"      ,   2,      -860.5,      -229.5
"Line.LN6352700-1"      ,   1,        36.0,         9.6,         0.0,         0.0,         0.0,         0.0
"Line.LN6352700-1"      ,   2,       -36.0,        -9.6
"Line.LN6047570-1"      ,   1,         5.4,         1.4,         0.0,         0.0,         0.0,         0.0
"Line.LN6047570-1"      ,   2,        -5.4,        -1.4
"Line.LN5624342-1"      ,   1,      6159.3,       697.8,         0.0,         0.0,         0.0,         0.0
"Line.LN5624342-1"      ,   2,     -6157.0,      -692.2
